
**** 09/11/25 19:59:53 **** PSpice 23.1.0 (30 January 2024) *** ID# 0 ********

 ** Profile: "SCHEMATIC1-time_domain"  [ c:\users\mshar\documents\capstone\simulation\software-defined instrumentation amplifier\soft


 ****     CIRCUIT DESCRIPTION


******************************************************************************




** Creating circuit file "time_domain.cir" 
** WARNING: THIS AUTOMATICALLY GENERATED FILE MAY BE OVERWRITTEN BY SUBSEQUENT SIMULATIONS

*Libraries: 
* Profile Libraries :
* Local Libraries :
* From [PSPICE NETLIST] section of C:\cds_spb_home\cdssetup\OrCAD_PSpiceTIPSpice_Install\23.1.0\PSpice.ini file:
.lib "nom_pspti.lib" 
.lib "nom.lib" 

*Analysis directives: 
.TRAN  0 5m 0 0.01m 
.OPTIONS ADVCONV
.OPTIONS FILEMODELSEARCH
.PROBE64 V(alias(*)) I(alias(*)) W(alias(*)) D(alias(*)) NOISE(alias(*)) 
.INC "..\SCHEMATIC1.net" 



**** INCLUDING SCHEMATIC1.net ****
* source SOFTWARE_DEFINED_INSTRUMENTATION_AMPLIFIER
X_U1         VREF1 N00582 VDD VSS N00550 LMV324
X_U2         N00602 N00586 VDD VSS VOUT LMV324
X_U3         N00271 N00578 VDD VSS N00564 LMV324
X_U4         N00840 N00800 VDD VSS N00271 LMV324
R_R1         VSEN N00840  10k TC=0,0 
R_R2         VOFF+ N00840  10k TC=0,0 
R_R3         N00550 N00586  10k TC=0,0 
R_R4         N00586 VOUT  10k TC=0,0 
R_R5         N00582 N00550  10k TC=0,0 
R_RG         N00578 N00582  10k TC=0,0 
R_R7         N00564 N00578  10k TC=0,0 
R_R8         N00602 N00564  10k TC=0,0 
R_R9         VREF2 N00602  10k TC=0,0 
R_R10         VOFF- N00800  10k TC=0,0 
R_R11         N00800 N00271  10k TC=0,0 
V_V1         VDD 0 5
V_V2         VOFF+ 0 0
V_V3         VOFF- 0 0
V_V7         VREF1 0 2.5
V_V8         VREF2 0 1.5
V_V10         0 VSS 0
V_V11         VSEN 0  AC 1k
+SIN 2.5 0.5 1k 0 0 0

**** RESUMING time_domain.cir ****
.END

**** 09/11/25 19:59:53 **** PSpice 23.1.0 (30 January 2024) *** ID# 0 ********

 ** Profile: "SCHEMATIC1-time_domain"  [ c:\users\mshar\documents\capstone\simulation\software-defined instrumentation amplifier\soft


 ****     Diode MODEL PARAMETERS


******************************************************************************




               X_U1.DMOD1      X_U1.DMOD2      X_U2.DMOD1      X_U2.DMOD2      
          IS   10.000000E-15   10.000000E-18   10.000000E-15   10.000000E-18 


               X_U3.DMOD1      X_U3.DMOD2      X_U4.DMOD1      X_U4.DMOD2      
          IS   10.000000E-15   10.000000E-18   10.000000E-15   10.000000E-18 


**** 09/11/25 19:59:53 **** PSpice 23.1.0 (30 January 2024) *** ID# 0 ********

 ** Profile: "SCHEMATIC1-time_domain"  [ c:\users\mshar\documents\capstone\simulation\software-defined instrumentation amplifier\soft


 ****     BJT MODEL PARAMETERS


******************************************************************************




               X_U1.NPN1       X_U1.PNP1       X_U2.NPN1       X_U2.PNP1       
               NPN             PNP             NPN             PNP             
       LEVEL    1               1               1               1            
          IS    1.000000E-15    1.000000E-15    1.000000E-15    1.000000E-15 
          BF  100             100             100             100            
          NF    1               1               1               1            
          BR    1               1               1               1            
          NR    1               1               1               1            
         ISS    0               0               0               0            
          RE    0               0               0               0            
          RC    0               0               0               0            
         CJE    0               0               0               0            
         VJE     .75             .75             .75             .75         
         CJC    0               0               0               0            
         VJC     .75             .75             .75             .75         
         MJC     .33             .33             .33             .33         
        XCJC    1               1               1               1            
         CJS    0               0               0               0            
         VJS     .75             .75             .75             .75         
          KF    0               0               0               0            
          AF    1               1               1               1            
          CN    2.42            2.2             2.42            2.2          
           D     .87             .52             .87             .52         


               X_U3.NPN1       X_U3.PNP1       X_U4.NPN1       X_U4.PNP1       
               NPN             PNP             NPN             PNP             
       LEVEL    1               1               1               1            
          IS    1.000000E-15    1.000000E-15    1.000000E-15    1.000000E-15 
          BF  100             100             100             100            
          NF    1               1               1               1            
          BR    1               1               1               1            
          NR    1               1               1               1            
         ISS    0               0               0               0            
          RE    0               0               0               0            
          RC    0               0               0               0            
         CJE    0               0               0               0            
         VJE     .75             .75             .75             .75         
         CJC    0               0               0               0            
         VJC     .75             .75             .75             .75         
         MJC     .33             .33             .33             .33         
        XCJC    1               1               1               1            
         CJS    0               0               0               0            
         VJS     .75             .75             .75             .75         
          KF    0               0               0               0            
          AF    1               1               1               1            
          CN    2.42            2.2             2.42            2.2          
           D     .87             .52             .87             .52         


**** 09/11/25 19:59:53 **** PSpice 23.1.0 (30 January 2024) *** ID# 0 ********

 ** Profile: "SCHEMATIC1-time_domain"  [ c:\users\mshar\documents\capstone\simulation\software-defined instrumentation amplifier\soft


 ****     Resistor MODEL PARAMETERS


******************************************************************************




               X_U1.MRAX       X_U1.MRIB       X_U1.MRISC      X_U2.MRAX       
           R    1               1               1               1            
         TC1   10.000000E-06    2.837130E-03   -3.000000E-03   10.000000E-06 


               X_U2.MRIB       X_U2.MRISC      X_U3.MRAX       X_U3.MRIB       
           R    1               1               1               1            
         TC1    2.837130E-03   -3.000000E-03   10.000000E-06    2.837130E-03 


               X_U3.MRISC      X_U4.MRAX       X_U4.MRIB       X_U4.MRISC      
           R    1               1               1               1            
         TC1   -3.000000E-03   10.000000E-06    2.837130E-03   -3.000000E-03 


**** 09/11/25 19:59:53 **** PSpice 23.1.0 (30 January 2024) *** ID# 0 ********

 ** Profile: "SCHEMATIC1-time_domain"  [ c:\users\mshar\documents\capstone\simulation\software-defined instrumentation amplifier\soft


 ****     INITIAL TRANSIENT SOLUTION       TEMPERATURE =   27.000 DEG C


******************************************************************************



 NODE   VOLTAGE     NODE   VOLTAGE     NODE   VOLTAGE     NODE   VOLTAGE


(  VDD)    5.0000  (  VSS)    0.0000  ( VOUT)    1.5509  ( VSEN)    2.5000      

(VOFF+)    0.0000  (VOFF-)    0.0000  (VREF1)    2.5000  (VREF2)    1.5000      

(N00271)    2.5125 (N00550)    2.4946 (N00564)    2.5321 (N00578)    2.5195     

(N00582)    2.5070 (N00586)    2.0227 (N00602)    2.0160 (N00800)    1.2562     

(N00840)    1.2499 (X_U1.10)    2.5000                   (X_U1.11)    2.5034    

(X_U1.17)    2.5000                   (X_U1.18)    2.5069                       

(X_U1.19)    2.5000                   (X_U1.21)    1.2500                       

(X_U1.22)    6.2500                   (X_U1.23)    6.2500                       

(X_U1.24)    4.1551                   (X_U1.25)    3.5000                       

(X_U1.26)    3.5000                   (X_U1.27)    3.3338                       

(X_U1.28)    3.0469                   (X_U1.29)    2.5000                       

(X_U1.31)    6.5000                   (X_U1.32)    5.5000                       

(X_U1.33)    4.5000                   (X_U1.34)    3.5000                       

(X_U1.38)    2.5034                   (X_U1.39)    2.5034                       

(X_U1.40)    5.0000                   (X_U1.41)    2.5033                       

(X_U1.42)    5.0000                   (X_U1.43)    2.5000                       

(X_U1.44)    2.5000                   (X_U1.45)    2.5000                       

(X_U1.50)    0.0000                   (X_U1.51)  101.8000                       

(X_U1.52)  -96.8000                   (X_U1.57)    2.5004                       

(X_U1.58)    2.5000                   (X_U1.59)    2.5595                       

(X_U1.71)    2.5585                   (X_U1.72)    1.7365                       

(X_U1.73)    3.2537                   (X_U1.74)    5.0000                       

(X_U1.75)     .0100                   (X_U1.76)    5.0000                       

(X_U1.77)    0.0000                   (X_U1.78)    2.4996                       

(X_U1.79)    2.4904                   (X_U1.81)    2.4950                       

(X_U1.86)    2.4946                   (X_U1.91)    2.5000                       

(X_U1.92)    2.5000                   (X_U1.93)    3.0754                       

(X_U1.94)    2.5034                   (X_U1.95)     .2000                       

(X_U1.96)    2.5034                   (X_U1.97)    4.2000                       

(X_U1.98)    2.5034                   (X_U1.99)    2.5034                       

(X_U2.10)    2.5000                   (X_U2.11)    2.0313                       

(X_U2.17)    2.5000                   (X_U2.18)    2.0227                       

(X_U2.19)    2.0159                   (X_U2.21)    1.2500                       

(X_U2.22)    6.2500                   (X_U2.23)    6.2500                       

(X_U2.24)    4.1551                   (X_U2.25)    3.5000                       

(X_U2.26)    3.5000                   (X_U2.27)    3.3338                       

(X_U2.28)    3.0469                   (X_U2.29)    2.5000                       

(X_U2.31)    6.5000                   (X_U2.32)    5.5000                       

(X_U2.33)    4.5000                   (X_U2.34)    3.5000                       

(X_U2.38)    2.0313                   (X_U2.39)    2.0313                       

(X_U2.40)    5.0000                   (X_U2.41)    2.0395                       

(X_U2.42)    5.0000                   (X_U2.43)    2.5000                       

(X_U2.44)    2.5000                   (X_U2.45)    2.5000                       

(X_U2.50)    0.0000                   (X_U2.51)  101.8000                       

(X_U2.52)  -96.8000                   (X_U2.57)    2.4936                       

(X_U2.58)    2.5000                   (X_U2.59)    1.6146                       

(X_U2.71)    1.6136                   (X_U2.72)     .7917                       

(X_U2.73)    2.3089                   (X_U2.74)    5.0000                       

(X_U2.75)     .0100                   (X_U2.76)    5.0000                       

(X_U2.77)    0.0000                   (X_U2.78)    1.5551                       

(X_U2.79)    1.5458                   (X_U2.81)    1.5505                       

(X_U2.86)    1.5509                   (X_U2.91)    2.5000                       

(X_U2.92)    2.5000                   (X_U2.93)    1.9239                       

(X_U2.94)    2.0313                   (X_U2.95)     .2000                       

(X_U2.96)    2.0313                   (X_U2.97)    4.2000                       

(X_U2.98)    2.0313                   (X_U2.99)    2.0313                       

(X_U3.10)    2.5000                   (X_U3.11)    2.5156                       

(X_U3.17)    2.5000                   (X_U3.18)    2.5195                       

(X_U3.19)    2.5125                   (X_U3.21)    1.2500                       

(X_U3.22)    6.2500                   (X_U3.23)    6.2500                       

(X_U3.24)    4.1551                   (X_U3.25)    3.5000                       

(X_U3.26)    3.5000                   (X_U3.27)    3.3338                       

(X_U3.28)    3.0469                   (X_U3.29)    2.5000                       

(X_U3.31)    6.5000                   (X_U3.32)    5.5000                       

(X_U3.33)    4.5000                   (X_U3.34)    3.5000                       

(X_U3.38)    2.5156                   (X_U3.39)    2.5156                       

(X_U3.40)    5.0000                   (X_U3.41)    2.5153                       

(X_U3.42)    5.0000                   (X_U3.43)    2.5000                       

(X_U3.44)    2.5000                   (X_U3.45)    2.5000                       

(X_U3.50)    0.0000                   (X_U3.51)  101.8000                       

(X_U3.52)  -96.8000                   (X_U3.57)    2.5007                       

(X_U3.58)    2.5000                   (X_U3.59)    2.5971                       

(X_U3.71)    2.5961                   (X_U3.72)    1.7741                       

(X_U3.73)    3.2913                   (X_U3.74)    5.0000                       

(X_U3.75)     .0100                   (X_U3.76)    5.0000                       

(X_U3.77)    0.0000                   (X_U3.78)    2.5372                       

(X_U3.79)    2.5280                   (X_U3.81)    2.5326                       

(X_U3.86)    2.5321                   (X_U3.91)    2.5000                       

(X_U3.92)    2.5000                   (X_U3.93)    3.0791                       

(X_U3.94)    2.5156                   (X_U3.95)     .2000                       

(X_U3.96)    2.5156                   (X_U3.97)    4.2000                       

(X_U3.98)    2.5156                   (X_U3.99)    2.5156                       

(X_U4.10)    2.5000                   (X_U4.11)    1.2842                       

(X_U4.17)    2.5000                   (X_U4.18)    1.2562                       

(X_U4.19)    1.2499                   (X_U4.21)    1.2500                       

(X_U4.22)    6.2500                   (X_U4.23)    6.2500                       

(X_U4.24)    4.1551                   (X_U4.25)    3.5000                       

(X_U4.26)    3.5000                   (X_U4.27)    3.3338                       

(X_U4.28)    3.0469                   (X_U4.29)    2.5000                       

(X_U4.31)    6.5000                   (X_U4.32)    5.5000                       

(X_U4.33)    4.5000                   (X_U4.34)    3.5000                       

(X_U4.38)    1.2842                   (X_U4.39)    1.2842                       

(X_U4.40)    5.0000                   (X_U4.41)    1.3055                       

(X_U4.42)    5.0000                   (X_U4.43)    2.5000                       

(X_U4.44)    2.5000                   (X_U4.45)    2.5000                       

(X_U4.50)    0.0000                   (X_U4.51)  101.8000                       

(X_U4.52)  -96.8000                   (X_U4.57)    2.5006                       

(X_U4.58)    2.5000                   (X_U4.59)    2.5784                       

(X_U4.71)    2.5774                   (X_U4.72)    1.7554                       

(X_U4.73)    3.2726                   (X_U4.74)    5.0000                       

(X_U4.75)     .0100                   (X_U4.76)    5.0000                       

(X_U4.77)    0.0000                   (X_U4.78)    2.5183                       

(X_U4.79)    2.5090                   (X_U4.81)    2.5136                       

(X_U4.86)    2.5125                   (X_U4.91)    2.5000                       

(X_U4.92)    2.5000                   (X_U4.93)    3.1015                       

(X_U4.94)    1.2842                   (X_U4.95)     .2000                       

(X_U4.96)    1.2842                   (X_U4.97)    4.2000                       

(X_U4.98)    1.2842                   (X_U4.99)    1.2842                       

(X_U1.120)    4.5000                  (X_U1.121)    3.5000                      

(X_U1.122)    3.5070                  (X_U1.710)    2.6139                      

(X_U1.720)    1.8920                  (X_U2.120)    4.5000                      

(X_U2.121)    3.5000                  (X_U2.122)    3.5070                      

(X_U2.710)    1.6691                  (X_U2.720)     .9471                      

(X_U3.120)    4.5000                  (X_U3.121)    3.5000                      

(X_U3.122)    3.5070                  (X_U3.710)    2.6515                      

(X_U3.720)    1.9296                  (X_U4.120)    4.5000                      

(X_U4.121)    3.5000                  (X_U4.122)    3.5070                      

(X_U4.710)    2.6328                  (X_U4.720)    1.9109                  




    VOLTAGE SOURCE CURRENTS
    NAME         CURRENT

    V_V1        -6.446E-04
    V_V2         1.250E-04
    V_V3         1.256E-04
    V_V7        -1.775E-08
    V_V8         5.160E-05
    V_V10       -4.674E-04
    V_V11       -1.250E-04
    X_U1.VOFF   -2.105E-12
    X_U1.VSENS1   1.000E-03
    X_U1.VTEMP   1.522E-08
    X_U1.VCMX    3.316E-09
    X_U1.VPSX    0.000E+00
    X_U1.VCXX   -6.068E-13
    X_U1.VOOP    4.598E-03
    X_U1.VOON    4.552E-03
    X_U1.VOX     4.595E-05
    X_U1.VFX1    4.595E-05
    X_U1.VFX2   -5.854E-13
    X_U2.VOFF   -2.105E-12
    X_U2.VSENS1   1.000E-03
    X_U2.VTEMP   1.522E-08
    X_U2.VCMX   -4.605E-07
    X_U2.VPSX    0.000E+00
    X_U2.VCXX    3.374E-13
    X_U2.VOOP    4.552E-03
    X_U2.VOON    4.599E-03
    X_U2.VOX    -4.718E-05
    X_U2.VFX1   -5.861E-13
    X_U2.VFX2    4.718E-05
    X_U3.VOFF   -2.105E-12
    X_U3.VSENS1   1.000E-03
    X_U3.VTEMP   1.522E-08
    X_U3.VCMX    1.530E-08
    X_U3.VPSX    0.000E+00
    X_U3.VCXX   -6.311E-13
    X_U3.VOOP    4.601E-03
    X_U3.VOON    4.549E-03
    X_U3.VOX     5.288E-05
    X_U3.VFX1    5.288E-05
    X_U3.VFX2   -5.891E-13
    X_U4.VOFF   -2.105E-12
    X_U4.VSENS1   1.000E-03
    X_U4.VTEMP   1.522E-08
    X_U4.VCMX   -1.195E-06
    X_U4.VPSX    0.000E+00
    X_U4.VCXX    1.832E-12
    X_U4.VOOP    4.637E-03
    X_U4.VOON    4.512E-03
    X_U4.VOX     1.257E-04
    X_U4.VFX1    1.257E-04
    X_U4.VFX2   -6.115E-13

    TOTAL POWER DISSIPATION   3.46E-03  WATTS



          JOB CONCLUDED

**** 09/11/25 19:59:53 **** PSpice 23.1.0 (30 January 2024) *** ID# 0 ********

 ** Profile: "SCHEMATIC1-time_domain"  [ c:\users\mshar\documents\capstone\simulation\software-defined instrumentation amplifier\soft


 ****     JOB STATISTICS SUMMARY


******************************************************************************



  Total job time (using Solver 1)   =        2.55
