time	V(vout)	V(vref)	V(vsensor)
0.000000000000000e+00	4.453900e-01	3.673467e+00	3.667900e+00
1.003500000000000e-03	5.898459e-01	3.673467e+00	3.666094e+00
2.024500000000003e-03	7.367051e-01	3.673467e+00	3.664258e+00
3.045500000000006e-03	8.835571e-01	3.673467e+00	3.662422e+00
4.066500000000008e-03	1.030248e+00	3.673467e+00	3.660589e+00
5.087500000000011e-03	1.176862e+00	3.673467e+00	3.658756e+00
6.108500000000014e-03	1.323467e+00	3.673467e+00	3.656923e+00
7.129500000000017e-03	1.469979e+00	3.673467e+00	3.655092e+00
8.150499999999890e-03	1.616348e+00	3.673467e+00	3.653262e+00
9.171499999999876e-03	1.762689e+00	3.673467e+00	3.651433e+00
1.019249999999986e-02	1.908895e+00	3.673467e+00	3.649606e+00
1.121349999999984e-02	2.055066e+00	3.673467e+00	3.647778e+00
1.223449999999983e-02	2.201090e+00	3.673467e+00	3.645953e+00
1.325549999999981e-02	2.347051e+00	3.673467e+00	3.644128e+00
1.427649999999980e-02	2.492989e+00	3.673467e+00	3.642304e+00
1.529749999999978e-02	2.638820e+00	3.673467e+00	3.640481e+00
1.631850000000032e-02	2.784536e+00	3.673467e+00	3.638660e+00
1.733950000000034e-02	2.930197e+00	3.673467e+00	3.636839e+00
1.782750000000083e-02	2.999766e+00	3.673467e+00	3.635969e+00
1.782850000000083e-02	2.999908e+00	3.673467e+00	3.635968e+00
1.782950000000083e-02	3.000002e+00	3.673467e+00	3.635966e+00
1.783050000000083e-02	3.000013e+00	3.673467e+00	3.635964e+00
1.783364285714369e-02	3.000007e+00	3.673467e+00	3.635958e+00
1.783678571428655e-02	3.000003e+00	3.673467e+00	3.635953e+00
1.783992857142941e-02	2.999999e+00	3.673467e+00	3.635947e+00
1.784307142857227e-02	2.999998e+00	3.673467e+00	3.635942e+00
1.784621428571513e-02	2.999997e+00	3.673467e+00	3.635936e+00
1.784935714285799e-02	2.999998e+00	3.673467e+00	3.635930e+00
1.785250000000085e-02	3.000000e+00	3.673467e+00	3.635925e+00
1.836050000000036e-02	3.000000e+00	3.673467e+00	3.635020e+00
1.938150000000038e-02	3.000000e+00	3.673467e+00	3.633202e+00
2.040250000000040e-02	3.000000e+00	3.673467e+00	3.631384e+00
2.054821428571469e-02	3.000000e+00	3.673467e+00	3.631124e+00
2.069392857142898e-02	3.000000e+00	3.673467e+00	3.630865e+00
2.083964285714326e-02	3.000000e+00	3.673467e+00	3.630605e+00
2.098535714285756e-02	3.000000e+00	3.673467e+00	3.630346e+00
2.113107142857184e-02	3.000000e+00	3.673467e+00	3.630087e+00
2.127678571428613e-02	3.000000e+00	3.673467e+00	3.629828e+00
2.142250000000042e-02	3.000000e+00	3.673467e+00	3.629569e+00
2.142350000000042e-02	3.000000e+00	3.673467e+00	3.629567e+00
2.244450000000044e-02	3.000000e+00	3.673467e+00	3.627752e+00
2.346550000000046e-02	3.000000e+00	3.673467e+00	3.625937e+00
2.448650000000048e-02	3.000000e+00	3.673467e+00	3.624124e+00
2.550750000000051e-02	3.000000e+00	3.673467e+00	3.622312e+00
2.652850000000053e-02	3.000000e+00	3.673467e+00	3.620500e+00
2.754950000000055e-02	3.000000e+00	3.673467e+00	3.618690e+00
2.857050000000057e-02	3.000000e+00	3.673467e+00	3.616882e+00
2.959150000000059e-02	3.000000e+00	3.673467e+00	3.615073e+00
3.061250000000061e-02	3.000000e+00	3.673467e+00	3.613266e+00
3.075821428571490e-02	3.000000e+00	3.673467e+00	3.613008e+00
3.090392857142919e-02	3.000000e+00	3.673467e+00	3.612750e+00
3.104964285714347e-02	3.000000e+00	3.673467e+00	3.612492e+00
3.119535714285776e-02	3.000000e+00	3.673467e+00	3.612234e+00
3.134107142857205e-02	3.000000e+00	3.673467e+00	3.611977e+00
3.148678571428633e-02	3.000000e+00	3.673467e+00	3.611719e+00
3.163250000000063e-02	3.000000e+00	3.673467e+00	3.611462e+00
3.163350000000063e-02	3.000000e+00	3.673467e+00	3.611460e+00
3.165835714285779e-02	3.000000e+00	3.673467e+00	3.611416e+00
3.168321428571496e-02	3.000000e+00	3.673467e+00	3.611372e+00
3.170807142857213e-02	3.000000e+00	3.673467e+00	3.611328e+00
3.173292857142930e-02	3.000000e+00	3.673467e+00	3.611284e+00
3.175778571428647e-02	3.000000e+00	3.673467e+00	3.611240e+00
3.178264285714363e-02	3.000000e+00	3.673467e+00	3.611196e+00
3.180750000000080e-02	3.000000e+00	3.673467e+00	3.611152e+00
3.181650000000081e-02	3.000000e+00	3.673467e+00	3.611136e+00
3.182550000000082e-02	3.000000e+00	3.673467e+00	3.611121e+00
3.183450000000083e-02	3.000000e+00	3.673467e+00	3.611105e+00
3.184350000000084e-02	3.000000e+00	3.673467e+00	3.611089e+00
3.185250000000085e-02	3.000000e+00	3.673467e+00	3.611073e+00
3.186150000000085e-02	3.000000e+00	3.673467e+00	3.611057e+00
3.187050000000086e-02	3.000000e+00	3.673467e+00	3.611041e+00
3.187878571428659e-02	3.000000e+00	3.673467e+00	3.611026e+00
3.188707142857231e-02	3.000000e+00	3.673467e+00	3.611012e+00
3.189535714285803e-02	3.000000e+00	3.673467e+00	3.610997e+00
3.190364285714375e-02	3.000000e+00	3.673467e+00	3.610982e+00
3.191192857142948e-02	3.000000e+00	3.673467e+00	3.610968e+00
3.192021428571520e-02	3.000000e+00	3.673467e+00	3.610953e+00
3.192850000000092e-02	3.000000e+00	3.673467e+00	3.610938e+00
3.193992857142936e-02	3.000000e+00	3.673467e+00	3.610918e+00
3.195135714285780e-02	3.000000e+00	3.673467e+00	3.610898e+00
3.196278571428624e-02	3.000000e+00	3.673467e+00	3.610878e+00
3.197421428571469e-02	3.000000e+00	3.673467e+00	3.610858e+00
3.198564285714313e-02	3.000000e+00	3.673467e+00	3.610837e+00
3.199707142857157e-02	3.000000e+00	3.673467e+00	3.610817e+00
3.200850000000001e-02	3.000000e+00	3.673467e+00	3.610797e+00
3.203964285714290e-02	3.000000e+00	3.673467e+00	3.610742e+00
3.207078571428579e-02	3.000000e+00	3.673467e+00	3.610687e+00
3.210192857142868e-02	3.000000e+00	3.673467e+00	3.610632e+00
3.213307142857156e-02	3.000000e+00	3.673467e+00	3.610577e+00
3.216421428571445e-02	3.000000e+00	3.673467e+00	3.610522e+00
3.219535714285734e-02	3.000000e+00	3.673467e+00	3.610467e+00
3.222650000000023e-02	3.000000e+00	3.673467e+00	3.610412e+00
3.228750000000029e-02	3.000000e+00	3.673467e+00	3.610304e+00
3.234850000000035e-02	3.000000e+00	3.673467e+00	3.610196e+00
3.240950000000041e-02	3.000000e+00	3.673467e+00	3.610088e+00
3.247050000000047e-02	3.000000e+00	3.673467e+00	3.609980e+00
3.253150000000053e-02	3.000000e+00	3.673467e+00	3.609872e+00
3.259250000000059e-02	3.000000e+00	3.673467e+00	3.609764e+00
3.265350000000065e-02	3.000000e+00	3.673467e+00	3.609657e+00
3.265450000000066e-02	3.000000e+00	3.673467e+00	3.609655e+00
3.280021428571495e-02	3.000000e+00	3.673467e+00	3.609397e+00
3.294592857142923e-02	3.000000e+00	3.673467e+00	3.609140e+00
3.309164285714352e-02	3.000000e+00	3.673467e+00	3.608882e+00
3.323735714285781e-02	3.000000e+00	3.673467e+00	3.608625e+00
3.338307142857210e-02	3.000000e+00	3.673467e+00	3.608367e+00
3.352878571428639e-02	3.000000e+00	3.673467e+00	3.608110e+00
3.367450000000068e-02	3.000000e+00	3.673467e+00	3.607853e+00
3.367550000000068e-02	3.000000e+00	3.673467e+00	3.607851e+00
3.469650000000070e-02	3.000000e+00	3.673467e+00	3.606049e+00
3.571750000000072e-02	3.000000e+00	3.673467e+00	3.604247e+00
3.673850000000074e-02	3.000000e+00	3.673467e+00	3.602445e+00
3.775950000000076e-02	3.000000e+00	3.673467e+00	3.600646e+00
3.878050000000078e-02	3.000000e+00	3.673467e+00	3.598847e+00
3.980150000000080e-02	3.000000e+00	3.673467e+00	3.597049e+00
4.082250000000082e-02	3.000000e+00	3.673467e+00	3.595253e+00
4.184350000000085e-02	3.000000e+00	3.673467e+00	3.593457e+00
4.286450000000087e-02	3.000000e+00	3.673467e+00	3.591663e+00
4.388550000000089e-02	3.000000e+00	3.673467e+00	3.589869e+00
4.490650000000090e-02	3.000000e+00	3.673467e+00	3.588076e+00
4.592750000000093e-02	3.000000e+00	3.673467e+00	3.586285e+00
4.694850000000095e-02	3.000000e+00	3.673467e+00	3.584494e+00
4.796950000000097e-02	3.000000e+00	3.673467e+00	3.582705e+00
4.899050000000099e-02	3.000000e+00	3.673467e+00	3.580917e+00
5.000850000000001e-02	3.000000e+00	3.673467e+00	3.579135e+00
5.102950000000003e-02	3.000000e+00	3.673467e+00	3.577348e+00
5.205050000000006e-02	3.000000e+00	3.673467e+00	3.575564e+00
5.307150000000007e-02	3.000000e+00	3.673467e+00	3.573779e+00
5.409250000000009e-02	3.000000e+00	3.673467e+00	3.571996e+00
5.511350000000011e-02	3.000000e+00	3.673467e+00	3.570214e+00
5.613450000000014e-02	3.000000e+00	3.673467e+00	3.568434e+00
5.715550000000016e-02	3.000000e+00	3.673467e+00	3.566653e+00
5.817650000000018e-02	3.000000e+00	3.673467e+00	3.564875e+00
5.919750000000020e-02	3.000000e+00	3.673467e+00	3.563097e+00
6.021850000000022e-02	3.000000e+00	3.673467e+00	3.561320e+00
6.123950000000024e-02	3.000000e+00	3.673467e+00	3.559544e+00
6.226050000000026e-02	3.000000e+00	3.673467e+00	3.557769e+00
6.328150000000028e-02	3.000000e+00	3.673467e+00	3.555995e+00
6.430250000000030e-02	3.000000e+00	3.673467e+00	3.554223e+00
6.532350000000033e-02	3.000000e+00	3.673467e+00	3.552451e+00
6.634450000000035e-02	3.000000e+00	3.673467e+00	3.550681e+00
6.736550000000037e-02	3.000000e+00	3.673467e+00	3.548912e+00
6.838650000000039e-02	3.000000e+00	3.673467e+00	3.547143e+00
6.940750000000041e-02	3.000000e+00	3.673467e+00	3.545375e+00
7.042850000000044e-02	3.000000e+00	3.673467e+00	3.543609e+00
7.144950000000046e-02	3.000000e+00	3.673467e+00	3.541843e+00
7.247050000000048e-02	3.000000e+00	3.673467e+00	3.540079e+00
7.349150000000049e-02	3.000000e+00	3.673467e+00	3.538316e+00
7.451250000000051e-02	3.000000e+00	3.673467e+00	3.536553e+00
7.553350000000053e-02	3.000000e+00	3.673467e+00	3.534792e+00
7.655450000000055e-02	3.000000e+00	3.673467e+00	3.533033e+00
7.757550000000057e-02	3.000000e+00	3.673467e+00	3.531273e+00
7.859650000000060e-02	3.000000e+00	3.673467e+00	3.529516e+00
7.961750000000062e-02	3.000000e+00	3.673467e+00	3.527758e+00
8.063850000000064e-02	3.000000e+00	3.673467e+00	3.526002e+00
8.165950000000066e-02	3.000000e+00	3.673467e+00	3.524247e+00
8.268050000000068e-02	3.000000e+00	3.673467e+00	3.522494e+00
8.370150000000071e-02	3.000000e+00	3.673467e+00	3.520741e+00
8.472250000000073e-02	3.000000e+00	3.673467e+00	3.518988e+00
8.574350000000075e-02	3.000000e+00	3.673467e+00	3.517238e+00
8.676450000000077e-02	3.000000e+00	3.673467e+00	3.515488e+00
8.778550000000079e-02	3.000000e+00	3.673467e+00	3.513739e+00
8.880650000000080e-02	3.000000e+00	3.673467e+00	3.511992e+00
8.982750000000082e-02	3.000000e+00	3.673467e+00	3.510245e+00
9.084850000000085e-02	3.000000e+00	3.673467e+00	3.508499e+00
9.186950000000087e-02	3.000000e+00	3.673467e+00	3.506755e+00
9.289050000000089e-02	3.000000e+00	3.673467e+00	3.505011e+00
9.391150000000091e-02	3.000000e+00	3.673467e+00	3.503269e+00
9.493250000000093e-02	3.000000e+00	3.673467e+00	3.501527e+00
9.595350000000095e-02	3.000000e+00	3.673467e+00	3.499787e+00
9.697450000000098e-02	3.000000e+00	3.673467e+00	3.498047e+00
9.799550000000100e-02	3.000000e+00	3.673467e+00	3.496310e+00
9.901350000000002e-02	3.000000e+00	3.673467e+00	3.494577e+00
9.999950000000100e-02	3.000000e+00	3.673467e+00	3.492901e+00
1.000000000000000e-01	3.000000e+00	3.673467e+00	3.492900e+00
